! Created with skrf (http://scikit-rf.org).
# GHz S RI R 54.93 
!freq ReS11 ImS11
3.0 0.9871465042182658 -0.15981795646812474
3.0005 0.9871411428593642 -0.15985107864786746
3.001 0.9871357787399649 -0.1598842108252669
3.0015 0.9871304118562629 -0.159917353018059
3.002 0.9871250422043697 -0.15995050524375515
3.0025 0.987119669780357 -0.1599836675201002
3.003 0.9871142945803039 -0.16001683986481413
3.0035 0.987108916600352 -0.1600500222956867
3.004 0.9871035358363826 -0.1600832148303974
3.0045 0.9870981522846062 -0.16011641748694508
3.005 0.9870927659409833 -0.16014963028308837
3.0055 0.9870873768014281 -0.1601828532367533
3.006 0.9870819848621357 -0.16021608636602896
3.0065 0.9870765901191466 -0.16024932968879912
3.007 0.9870711925682181 -0.16028258322322736
3.0075 0.9870657922054582 -0.16031584698725662
3.008 0.9870603890269333 -0.16034912099918588
3.0085 0.9870549830285061 -0.16038240527706787
3.009 0.9870495742061357 -0.16041569983923284
3.0095 0.9870441625557763 -0.16044900470385184
3.01 0.9870387480734462 -0.16048231988924377
3.0105 0.9870333307548804 -0.16051564541382432
3.011 0.9870279105961884 -0.16054898129590284
3.0115 0.9870224875931888 -0.1605823275539921
3.012 0.9870170617417623 -0.16061568420651645
3.0125 0.9870116330379008 -0.16064905127206733
3.013 0.9870062014772856 -0.16068242876908959
3.0135 0.9870007670559716 -0.16071581671629753
3.014 0.9869953297698221 -0.16074921513234255
3.0145 0.9869898896144822 -0.16078262403583954
3.015 0.9869844465859813 -0.16081604344567
3.0155 0.9869790006800442 -0.16084947338047634
3.016 0.9869735518924977 -0.16088291385918202
3.0165 0.986968100219134 -0.16091636490056757
3.017 0.9869626456558449 -0.16094982652371936
3.0175 0.9869571881983293 -0.16098329874745457
3.018 0.9869517278424543 -0.16101678159078148
3.0185 0.9869462645837687 -0.16105027507287087
3.019 0.986940798418242 -0.16108377921274114
3.0195 0.9869353293416077 -0.16111729402956002
3.02 0.9869298573495017 -0.16115081954253777
3.0205 0.9869243824376398 -0.16118435577089146
3.021 0.9869189046017434 -0.16121790273386713
3.0215 0.9869134238376001 -0.16125146045084374
3.022 0.9869079401408087 -0.16128502894118465
3.0225 0.9869024535070516 -0.16131860822426622
3.023 0.9868969639320834 -0.16135219831961314
3.0235 0.9868914714114606 -0.1613857992467388
3.024 0.9868859759408459 -0.1614194110252019
3.0245 0.9868804775159515 -0.16145303367460961
3.025 0.9868749761324314 -0.1614866672145723
3.0255 0.9868694717856785 -0.1615203116648195
3.026 0.9868639644715114 -0.16155396704505212
3.0265 0.9868584541855026 -0.16158763337515836
3.027 0.9868529409231482 -0.1616213106749292
3.0275 0.9868474246800156 -0.16165499896427113
3.028 0.9868419054517549 -0.1616886982631375
3.0285 0.9868363832338299 -0.16172240859144119
3.029 0.9868308580218709 -0.16175612996928734
3.0295 0.9868253298113107 -0.1617898624166845
3.03 0.9868197985977429 -0.1618236059538926
3.0305 0.9868142643765929 -0.16185736060096004
3.031 0.9868087271433441 -0.16189112637818595
3.0315 0.9868031868935886 -0.16192490330577028
3.032 0.9867976436227845 -0.16195869140412864
3.0325 0.9867920973262835 -0.16199249069361962
3.033 0.9867865479995461 -0.16202630119463113
3.0335 0.9867809956381081 -0.1620601229276252
3.034 0.9867754402373876 -0.16209395591318165
3.0345 0.9867698817927043 -0.16212780017182096
3.035 0.9867643202994489 -0.16216165572415822
3.0355 0.9867587557531269 -0.1621955225909015
3.036 0.9867531881490992 -0.16222940079276993
3.0365 0.9867476174826392 -0.162263290350539
3.037 0.9867420437492151 -0.16229719128498588
3.0375 0.9867364669440518 -0.16233110361700587
3.038 0.9867308870625854 -0.16236502736755412
3.0385 0.9867253041000427 -0.1623989625575325
3.039 0.9867197180518241 -0.16243290920803513
3.0395 0.9867141289132266 -0.16246686734013832
3.04 0.9867085366794526 -0.16250083697487758
3.0405 0.9867029413458446 -0.16253481813353737
3.041 0.9866973429075778 -0.16256881083730043
3.0415 0.9866917413600013 -0.16260281510743602
3.042 0.9866861366983497 -0.1626368309653022
3.0425 0.9866805289177523 -0.16267085843230333
3.043 0.9866749180134065 -0.1627048975298581
3.0435 0.9866693039807363 -0.1627389482794135
3.044 0.9866636868147002 -0.16277301070258968
3.0445 0.986658066510605 -0.16280708482088746
3.045 0.9866524430634943 -0.16284117065602988
3.0455 0.9866468164686208 -0.16287526822971882
3.046 0.9866411867211324 -0.16290937756370852
3.0465 0.9866355538160425 -0.16294349867974625
3.047 0.986629917748578 -0.16297763159975234
3.0475 0.98662427851382 -0.16301177634565728
3.048 0.9866186361068813 -0.16304593293937258
3.0485 0.9866129905227394 -0.16308010140292659
3.049 0.986607341756537 -0.16311428175840698
3.0495 0.9866016898032373 -0.16314847402801097
3.05 0.9865960346579852 -0.1631826782337796
3.0505 0.9865903763157876 -0.16321689439813053
3.051 0.9865847147716816 -0.16325112254322466
3.0515 0.9865790500206509 -0.16328536269148627
3.052 0.9865733820575829 -0.16331961486530633
3.0525 0.9865677108775674 -0.16335387908710153
3.053 0.9865620364754432 -0.1633881553794307
3.0535 0.9865563588463899 -0.1634224437648381
3.054 0.986550677985106 -0.16345674426603957
3.0545 0.9865449938866506 -0.16349105690555588
3.055 0.9865393065459143 -0.16352538170630432
3.0555 0.986533615957798 -0.16355971869096234
3.056 0.9865279221170767 -0.16359406788244568
3.0565 0.9865222250187324 -0.16362842930358318
3.057 0.9865165246576277 -0.16366280297743813
3.0575 0.9865108210285798 -0.16369718892703228
3.058 0.9865051141264427 -0.16373158717541145
3.0585 0.9864994039459356 -0.16376599774567555
3.059 0.9864936904820542 -0.16380042066103187
3.0595 0.986487973729375 -0.1638348559448423
3.06 0.9864822536828052 -0.16386930362023464
3.0605 0.9864765303370862 -0.16390376371078003
3.061 0.9864708036869737 -0.16393823623976464
3.0615 0.9864650737271058 -0.1639727212307412
3.062 0.9864593404523925 -0.16400721870728527
3.0625 0.986453603857364 -0.16404172869289133
3.063 0.9864478639367956 -0.16407625121131691
3.0635 0.9864421206853841 -0.16411078628622447
3.064 0.9864363740977902 -0.16414533394145836
3.0645 0.9864306241686611 -0.1641798942008392
3.065 0.9864248708926465 -0.16421446708824755
3.0655 0.9864191142643711 -0.16424905262766806
3.066 0.9864133542784381 -0.16428365084309862
3.0665 0.9864075909293474 -0.16431826175869063
3.067 0.9864018242118973 -0.16435288539845522
3.0675 0.9863960541204367 -0.16438752178676527
3.068 0.9863902806497278 -0.16442217094775743
3.0685 0.9863845037941174 -0.16445683290576438
3.069 0.9863787235483091 -0.1644915076853055
3.0695 0.9863729399066473 -0.16452619531069748
3.07 0.9863671528637148 -0.16456089580642866
3.0705 0.9863613624140907 -0.16459560919718647
3.071 0.986355568552049 -0.16463033550755363
3.0715 0.9863497712721373 -0.16466507476219905
3.072 0.986343970568909 -0.16469982698594302
3.0725 0.986338166436569 -0.164734592203594
3.073 0.9863323588696459 -0.16476937043997392
3.0735 0.9863265478626244 -0.16480416172012355
3.074 0.9863207334096974 -0.16483896606894743
3.0745 0.9863149155054185 -0.16487378351162874
3.075 0.9863090941439413 -0.1649086140732748
3.0755 0.9863032693197006 -0.16494345777902553
3.076 0.9862974410271227 -0.1649783146542606
3.0765 0.9862916092604089 -0.16501318472419593
3.077 0.9862857740137605 -0.16504806801429528
3.0775 0.9862799352816344 -0.16508296455002971
3.078 0.986274093058204 -0.16511787435688338
3.0785 0.9862682473377198 -0.16515279746049225
3.079 0.9862623981144024 -0.16518773388642918
3.0795 0.9862565453824738 -0.16522268366051707
3.08 0.9862506891361166 -0.1652576468085225
3.0805 0.9862448293696304 -0.16529262335625233
3.081 0.986238966076996 -0.16532761332959847
3.0815 0.9862330992525375 -0.16536261675471603
3.082 0.9862272288902049 -0.16539763365746743
3.0825 0.9862213549843313 -0.1654326640640386
3.083 0.9862154775289096 -0.16546770800064653
3.0835 0.9862095965180281 -0.165502765493562
3.084 0.9862037119458698 -0.16553783656903956
3.0845 0.9861978238062887 -0.1655729212535013
3.085 0.9861919320935395 -0.16560801957339144
3.0855 0.9861860368014248 -0.1656431315552634
3.086 0.9861801379241755 -0.16567825722572727
3.0865 0.986174235455781 -0.1657133966113964
3.087 0.9861683293900175 -0.16574854973901743
3.0875 0.9861624197210606 -0.16578371663537758
3.088 0.9861565064426411 -0.16581889732737506
3.0885 0.9861505895488792 -0.16585409184196126
3.089 0.9861446690336256 -0.16588930020608617
3.0895 0.9861387448908422 -0.16592452244685985
3.09 0.9861328171143307 -0.1659597585914416
3.0905 0.986126885697843 -0.1659950086670522
3.091 0.9861209506355307 -0.16603027270096565
3.0915 0.986115011920932 -0.16606555072055917
3.092 0.9861090695480489 -0.16610084275329232
3.0925 0.9861031235105876 -0.16613614882659122
3.093 0.9860971738023392 -0.16617146896802834
3.0935 0.9860912204170507 -0.16620680320531206
3.094 0.9860852633485658 -0.1662421515661945
3.0945 0.986079302590536 -0.1662775140783691
3.095 0.9860733381366681 -0.16631289076976
3.0955 0.9860673699807433 -0.16634828166825558
3.096 0.9860613981163527 -0.16638368680193064
3.0965 0.9860554225371617 -0.16641910619884714
3.097 0.9860494432369077 -0.1664545398871269
3.0975 0.9860434602091227 -0.16648998789496863
3.098 0.9860374734474169 -0.16652545025075266
3.0985 0.9860314829453855 -0.1665609269828434
3.099 0.9860254886966978 -0.16659641811965295
3.0995 0.9860194906948179 -0.1666319236897425
3.1 0.986013488933376 -0.16666744372169814
3.1005 0.9860074834057975 -0.16670297824418853
3.101 0.9860014741055966 -0.16673852728595331
3.1015 0.9859954610263544 -0.1667740908758834
3.102 0.9859894441614336 -0.16680966904284694
3.1025 0.9859834235043998 -0.1668452618157903
3.103 0.9859773990485878 -0.16688086922375003
3.1035 0.9859713707873947 -0.16691649129592478
3.104 0.985965338714327 -0.16695212806153684
3.1045 0.9859593028226622 -0.16698777954979105
3.105 0.9859532631057727 -0.16702344579013362
3.1055 0.9859472195570805 -0.16705912681191576
3.106 0.9859411721699322 -0.1670948226447438
3.1065 0.9859351209375181 -0.16713053331814595
3.107 0.9859290658531319 -0.16716625886184733
3.1075 0.9859230069101492 -0.16720199930554894
3.108 0.9859169441017 -0.16723775467915233
3.1085 0.985910877421137 -0.16727352501249834
3.109 0.9859048068615659 -0.16730931033563082
3.1095 0.9858987324161866 -0.16734511067856936
3.11 0.9858926540783564 -0.16738092607154512
3.1105 0.9858865718409461 -0.1674167565447418
3.111 0.9858804856972935 -0.16745260212847007
3.1115 0.9858743956405227 -0.1674884628530868
3.112 0.9858683016636266 -0.16752433874911662
3.1125 0.9858622037597817 -0.16756022984714447
3.113 0.985856101921947 -0.16759613617772684
3.1135 0.9858499961431753 -0.16763205777157758
3.114 0.9858438864166742 -0.16766799465964516
3.1145 0.9858377727351819 -0.16770394687258472
3.115 0.9858316550919378 -0.1677399144415543
3.1155 0.9858255334796148 -0.16777589739752158
3.116 0.9858194078914811 -0.16781189577161676
3.1165 0.9858132783202447 -0.16784790959509005
3.117 0.9858071447588186 -0.16788393889916875
3.1175 0.9858010072001864 -0.16791998371525627
3.118 0.9857948656371864 -0.1679560440749459
3.1185 0.9857887200626112 -0.1679921200095797
3.119 0.9857825704693545 -0.16802821155095754
3.1195 0.9857764168502244 -0.16806431873078317
3.12 0.9857702591979145 -0.16810044158078236
3.1205 0.9857640975052686 -0.16813658013292931
3.121 0.9857579317649608 -0.16817273441913655
3.1215 0.9857517619697971 -0.16820890447153564
3.122 0.985745588112485 -0.16824509032222984
3.1225 0.9857394101856234 -0.16828129200342332
3.123 0.9857332281819429 -0.168317509547523
3.1235 0.9857270420939934 -0.1683537429869484
3.124 0.985720851914515 -0.16838999235414562
3.1245 0.9857146576360905 -0.16842625768175723
3.125 0.9857084592512926 -0.16846253900240726
3.1255 0.9857022567526154 -0.16849883634885077
3.126 0.9856960501326537 -0.16853514975400458
3.1265 0.9856898393839306 -0.16857147925085286
3.127 0.985683624498866 -0.16860782487230835
3.1275 0.9856774054700099 -0.1686441866515994
3.128 0.9856711822898254 -0.16868056462185302
3.1285 0.9856649549506381 -0.16871695881639476
3.129 0.9856587234449626 -0.16875336926868809
3.1295 0.9856524877651824 -0.16878979601215285
3.13 0.9856462479036578 -0.1688262390804144
3.1305 0.9856400038526286 -0.16886269850716573
3.131 0.9856337556045388 -0.1688991743260984
3.1315 0.985627503151673 -0.16893566657108738
3.132 0.9856212464862213 -0.16897217527609523
3.1325 0.9856149856006157 -0.16900870047516237
3.133 0.9856087204869229 -0.1690452422024431
3.1335 0.9856024511374267 -0.16908180049211152
3.134 0.9855961775442301 -0.16911837537855923
3.1345 0.9855898996996972 -0.16915496689615098
3.135 0.9855836175957844 -0.16919157507938173
3.1355 0.9855773312246874 -0.169228199962993
3.136 0.9855710405785395 -0.16926484158149865
3.1365 0.9855647456493921 -0.1693014999698133
3.137 0.9855584464291978 -0.16933817516283298
3.1375 0.9855521429102082 -0.16937486719549497
3.138 0.9855458350842293 -0.1694115761028853
3.1385 0.9855395229433308 -0.16944830192023633
3.139 0.9855332064793833 -0.1694850446827445
3.1395 0.9855268856845223 -0.16952180442592618
3.14 0.9855205605505666 -0.16955858118513167
3.1405 0.9855142310693085 -0.16959537499602603
3.141 0.9855078972327296 -0.16963218589419554
3.1415 0.9855015590327506 -0.1696690139155113
3.142 0.985495216461017 -0.16970585909574787
3.1425 0.9854888695094102 -0.1697427214709033
3.143 0.9854825181696156 -0.16977960107707304
3.1435 0.9854761624335846 -0.1698164979504221
3.144 0.9854698022929297 -0.16985341212724298
3.1445 0.9854634377392695 -0.16989034364385558
3.145 0.9854570687644626 -0.16992729253682212
3.1455 0.9854506953599959 -0.16996425884263364
3.146 0.9854443175175553 -0.17000124259803412
3.1465 0.9854379352288917 -0.1700382438397528
3.147 0.9854315484853541 -0.17007526260471403
3.1475 0.9854251572786253 -0.17011229892979307
3.148 0.9854187616002111 -0.17014935285229651
3.1485 0.9854123614416271 -0.17018642440925458
3.149 0.9854059567943798 -0.17022351363797442
3.1495 0.9853995476498878 -0.17026062057595798
3.15 0.9853931339996004 -0.17029774526059305
3.1505 0.9853867158349416 -0.1703348877295472
3.151 0.9853802931472656 -0.17037204802057412
3.1515 0.9853738659279384 -0.1704092261715201
3.152 0.9853674341683096 -0.17044642222017264
3.1525 0.9853609978596581 -0.17048363620478885
3.153 0.9853545569932946 -0.17052086816327955
3.1535 0.9853481115604283 -0.17055811813414837
3.154 0.9853416615523458 -0.170595386155513
3.1545 0.9853352069602012 -0.17063267226601891
3.155 0.9853287477751997 -0.17066997650413845
3.1555 0.9853222839884902 -0.17070729890867156
3.156 0.9853158155911867 -0.17074463951830338
3.1565 0.985309342574485 -0.17078199837206967
3.157 0.9853028649292715 -0.17081937550886786
3.1575 0.9852963826466825 -0.1708567709679125
3.158 0.985289895717829 -0.17089418478840623
3.1585 0.9852834041335353 -0.17093161700965614
3.159 0.9852769078849432 -0.17096906767122635
3.1595 0.9852704069628991 -0.17100653681262207
3.16 0.9852639013583185 -0.1710440244735169
3.1605 0.9852573910620778 -0.17108153069378512
3.161 0.9852508760650324 -0.17111905551335704
3.1615 0.9852443563580217 -0.1711565989721965
3.162 0.985237831931853 -0.17119416111042282
3.1625 0.9852313027774116 -0.17123174196833574
3.163 0.9852247688852127 -0.1712693415863425
3.1635 0.9852182302461914 -0.17130696000495058
3.164 0.9852116868509616 -0.17134459726469703
3.1645 0.9852051386901762 -0.17138225340629756
3.165 0.9851985857544655 -0.17141992847065315
3.1655 0.9851920280344434 -0.17145762249867622
3.166 0.9851854655207952 -0.17149533553142618
3.1665 0.9851788982039634 -0.171533067610164
3.167 0.985172326074394 -0.1715708187761334
3.1675 0.9851657491228621 -0.17160858907084653
3.168 0.985159167339546 -0.17164637853575215
3.1685 0.9851525807149806 -0.17168418721254652
3.169 0.9851459892396687 -0.1717220151430925
3.1695 0.9851393929039185 -0.1717598623691909
3.17 0.9851327916980527 -0.17179772893299294
3.1705 0.9851261856124065 -0.17183561487654508
3.171 0.9851195746373876 -0.17187352024215147
3.1715 0.9851129587631386 -0.17191144507225095
3.172 0.9851063379798989 -0.1719493894093365
3.1725 0.9850997122778857 -0.17198735329605977
3.173 0.9850930816473541 -0.1720253367751502
3.1735 0.9850864460783894 -0.17206333988950237
3.174 0.9850798055610582 -0.17210136268220866
3.1745 0.9850731600854857 -0.1721394051963054
3.175 0.985066509641827 -0.17217746747508084
3.1755 0.9850598542199839 -0.1722155495620007
3.176 0.9850531938099586 -0.17225365150053248
3.1765 0.9850465284018104 -0.1722917733343626
3.177 0.9850398579853966 -0.1723299151072055
3.1775 0.9850331825506212 -0.17236807686295372
3.178 0.985026502087432 -0.17240625864572498
3.1785 0.9850198165855819 -0.17244446049958528
3.179 0.9850131260348866 -0.1724826824688972
3.1795 0.9850064304251434 -0.1725209245979515
3.18 0.9849997297461588 -0.17255918693150968
3.1805 0.9849930239875793 -0.1725974695140071
3.181 0.9849863131391857 -0.1726357723904195
3.1815 0.9849795971905326 -0.17267409560567074
3.182 0.9849728761312446 -0.17271243920470544
3.1825 0.9849661499510038 -0.17275080323291392
3.183 0.9849594186392628 -0.17278918773554885
3.1835 0.9849526821855673 -0.17282759275805756
3.184 0.9849459405794977 -0.17286601834603482
3.1845 0.9849391938104406 -0.17290446454524955
3.185 0.9849324418678763 -0.17294293140162217
3.1855 0.98492568474115 -0.17298141896111788
3.186 0.9849189224196913 -0.17301992726993018
3.1865 0.9849121548926545 -0.17305845637426084
3.187 0.9849053821496195 -0.17309700632056896
3.1875 0.9848986041795589 -0.17313557715544142
3.188 0.9848918209720084 -0.17317416892557222
3.1885 0.9848850325158727 -0.17321278167773052
3.189 0.9848782388004876 -0.17325141545898873
3.1895 0.9848714398150102 -0.17329007031639396
3.19 0.9848646355484278 -0.17332874629725162
3.1905 0.984857825989801 -0.17336744344887045
3.191 0.9848510111282709 -0.1734061618189228
3.1915 0.9848441909528216 -0.1734449014549481
3.192 0.9848373654523156 -0.17348366240485283
3.1925 0.9848305346156708 -0.17352244471654707
3.193 0.9848236984319007 -0.1735612484382065
3.1935 0.984816856889748 -0.17360007361795998
3.194 0.9848100099781383 -0.1736389203043994
3.1945 0.9848031576858587 -0.17367778854582935
3.195 0.9847963000015494 -0.173716678391144
3.1955 0.9847894369139425 -0.17375558988905304
3.196 0.9847825684117953 -0.1737945230885993
3.1965 0.9847756944837914 -0.17383347803885893
3.197 0.9847688151184235 -0.17387245478910335
3.1975 0.9847619303043422 -0.17391145338882813
3.198 0.9847550400300253 -0.17395047388752852
3.1985 0.9847481442840453 -0.17398951633491888
3.199 0.9847412430548003 -0.17402858078085415
3.1995 0.9847343363307747 -0.17406766727546175
3.2 0.9847274241002956 -0.17410677586887138
3.2005 0.9847205063518056 -0.17414590661129828
3.201 0.9847135830736348 -0.17418505955336563
3.2015 0.9847066542539452 -0.17422423474560256
3.202 0.9846997198811054 -0.1742634322388694
3.2025 0.9846927799432992 -0.1743026520840356
3.203 0.9846858344286302 -0.17434189433217628
3.2035 0.9846788833253017 -0.17438115903465565
3.204 0.9846719266213207 -0.17442044624264297
3.2045 0.9846649643048383 -0.1744597560080039
3.205 0.9846579963638976 -0.17449908838214076
3.2055 0.9846510227863654 -0.17453844341715588
3.206 0.9846440435602655 -0.1745778211649941
3.2065 0.9846370586735316 -0.17461722167785193
3.207 0.9846300681139099 -0.17465664500798722
3.2075 0.9846230718693395 -0.17469609120805576
3.208 0.9846160699275982 -0.17473556033068793
3.2085 0.9846090622763394 -0.17477505242867794
3.209 0.9846020489033928 -0.17481456755498756
3.2095 0.9845950297963945 -0.1748541057627931
3.21 0.9845880049429049 -0.17489366710541962
3.2105 0.9845809743305965 -0.17493325163638146
3.211 0.9845739379470457 -0.1749728594092384
3.2115 0.9845668957797185 -0.17501249047791329
3.212 0.9845598478160412 -0.17505214489620596
3.2125 0.9845527940435119 -0.17509182271850057
3.213 0.98454573444952 -0.17513152399885923
3.2135 0.9845386690213285 -0.17517124879191331
3.214 0.984531597746336 -0.17521099715225572
3.2145 0.9845245206118203 -0.17525076913474982
3.215 0.984517437605012 -0.17529056479421218
3.2155 0.9845103487130761 -0.17533038418596414
