! Created with skrf (http://scikit-rf.org).
# GHz S RI R 54.93 
!freq ReS11 ImS11
3.0 0.9874188897945672 -0.15812632948643945
3.0005 0.9874139670333153 -0.15815707598158132
3.001 0.9874090423535338 -0.1581878283165048
3.0015 0.9874041157534035 -0.15821858649970202
3.002 0.9873991872310183 -0.15824935053947084
3.0025 0.9873942567844468 -0.15828012044428533
3.003 0.9873893244117654 -0.15831089622257832
3.0035 0.9873843901111283 -0.15834167788282938
3.004 0.9873794538804205 -0.15837246543339276
3.0045 0.98737451571788 -0.1584032588828824
3.005 0.9873695756214815 -0.15843405823969187
3.0055 0.9873646335891713 -0.1584648635123342
3.006 0.9873596896191863 -0.15849567470943654
3.0065 0.9873547437095955 -0.1585264918394395
3.007 0.9873497958582157 -0.15855731491099345
3.0075 0.9873448460631992 -0.15858814393255907
3.008 0.9873398943226736 -0.158618978912857
3.0085 0.9873349406345686 -0.1586498198603942
3.009 0.9873299849969115 -0.15868066678388193
3.0095 0.9873250274077293 -0.15871151969189223
3.01 0.9873200678651288 -0.15874237859309684
3.0105 0.9873151063669316 -0.15877324349621139
3.011 0.9873101429113437 -0.15880411440986833
3.0115 0.9873051774962772 -0.15883499134283902
3.012 0.9873002101197286 -0.15886587430379412
3.0125 0.9872952407797965 -0.15889676330154204
3.013 0.9872902694742823 -0.15892765834473074
3.0135 0.9872852962013678 -0.15895855944222625
3.014 0.9872803209590444 -0.15898946660281743
3.0145 0.9872753437450958 -0.15902037983523934
3.015 0.9872703645576958 -0.15905129914843277
3.0155 0.9872653833947211 -0.1590822245511187
3.016 0.9872604002541475 -0.15911315605223453
3.0165 0.9872554151339363 -0.1591440936605743
3.017 0.987250428032146 -0.1591750373851703
3.0175 0.9872454389466465 -0.15920598723480872
3.018 0.987240447875489 -0.15923694321841395
3.0185 0.9872354548164136 -0.15926790534502108
3.019 0.9872304597675771 -0.1592988736235323
3.0195 0.9872254627269182 -0.15932984806293515
3.02 0.9872204636922766 -0.15936082867224335
3.0205 0.987215462661584 -0.15939181546045023
3.021 0.9872104596327768 -0.1594228084365594
3.0215 0.9872054546038734 -0.15945380760965758
3.022 0.9872004475727024 -0.1594848129887959
3.0225 0.9871954385371832 -0.15951582458302557
3.023 0.9871904274953213 -0.15954684240149003
3.0235 0.9871854144449254 -0.1595778664533064
3.024 0.9871803993839107 -0.15960889674760767
3.0245 0.9871753823102646 -0.1596399332935453
3.025 0.9871703632219013 -0.1596709761002585
3.0255 0.9871653421165014 -0.1597020251769502
3.026 0.9871603189921633 -0.15973308053279153
3.0265 0.9871552938467572 -0.15976414217708532
3.027 0.9871502666780747 -0.15979521011902081
3.0275 0.987145237483989 -0.15982628436787294
3.028 0.9871402062624657 -0.1598573649329333
3.0285 0.987135173011283 -0.15988845182343533
3.029 0.9871301377283989 -0.15991954504875058
3.0295 0.9871251004115774 -0.1599506446181484
3.03 0.9871200610587592 -0.1599817505410822
3.0305 0.9871150196677089 -0.16001286282681265
3.031 0.9871099762362657 -0.16004398148478474
3.0315 0.9871049307623804 -0.1600751065243373
3.032 0.9870998832438804 -0.16010623795497
3.0325 0.9870948336784954 -0.16013737578610698
3.033 0.9870897820640644 -0.16016852002717064
3.0335 0.9870847283985095 -0.16019967068764002
3.034 0.9870796726796468 -0.16023082777705497
3.0345 0.9870746149051985 -0.16026199130487767
3.035 0.9870695550729668 -0.16029316128064613
3.0355 0.9870644931808694 -0.16032433771393503
3.036 0.9870594292266983 -0.16035552061431188
3.0365 0.987054363208155 -0.160386709991367
3.037 0.9870492951231411 -0.16041790585467483
3.0375 0.9870442249693357 -0.1604491082138716
3.038 0.9870391527446253 -0.160480317078633
3.0385 0.9870340784466947 -0.16051153245856128
3.039 0.9870290020734143 -0.1605427543633959
3.0395 0.9870239236225563 -0.16057398280283722
3.04 0.9870188430918002 -0.16060521778652534
3.0405 0.9870137604789873 -0.16063645932429263
3.041 0.9870086757817867 -0.16066770742584768
3.0415 0.9870035889980503 -0.16069896210096826
3.042 0.9869985001255271 -0.16073022335946113
3.0425 0.9869934091618628 -0.16076149121115932
3.043 0.9869883161047889 -0.16079276566587833
3.0435 0.9869832209522554 -0.16082404673343956
3.044 0.9869781237017725 -0.16085533442378103
3.0445 0.9869730243511878 -0.16088662874671197
3.045 0.9869679228981084 -0.16091792971220678
3.0455 0.9869628193403525 -0.1609492373301955
3.046 0.9869577136756374 -0.1609805516106279
3.0465 0.9869526059015624 -0.16101187256342755
3.047 0.9869474960159381 -0.1610432001986287
3.0475 0.9869423840164488 -0.16107453452625678
3.048 0.9869372699008029 -0.16110587555629494
3.0485 0.9869321536665915 -0.16113722329878555
3.049 0.9869270353115823 -0.16116857776381974
3.0495 0.9869219148333633 -0.16119993896152612
3.05 0.9869167922297127 -0.16123130690190696
3.0505 0.9869116674982871 -0.16126268159522852
3.051 0.9869065406367675 -0.16129406305152966
3.0515 0.9869014116428029 -0.16132545128104042
3.052 0.9868962805139484 -0.16135684629393407
3.0525 0.9868911472479639 -0.16138824810038757
3.053 0.9868860118423809 -0.16141965671065983
3.0535 0.9868808742950587 -0.16145107213498391
3.054 0.9868757346034104 -0.1614824943836913
3.0545 0.9868705927651902 -0.16151392346694707
3.055 0.9868654487780113 -0.16154535939519954
3.0555 0.9868603026394988 -0.16157680217868617
3.056 0.9868551543471628 -0.16160825182780683
3.0565 0.9868500038987241 -0.16163970835286584
3.057 0.9868448512917904 -0.16167117176433735
3.0575 0.9868396965239474 -0.16170264207263324
3.058 0.9868345395928084 -0.1617341192881516
3.0585 0.9868293804958651 -0.16176560342132013
3.059 0.9868242192308999 -0.16179709448262608
3.0595 0.9868190557952856 -0.1618285924826462
3.06 0.9868138901867195 -0.16186009743175342
3.0605 0.986808722402758 -0.1618916093406454
3.061 0.9868035524409736 -0.16192312821976712
3.0615 0.9867983802988287 -0.16195465407974927
3.062 0.9867932059740719 -0.1619861869312233
3.0625 0.9867880294640705 -0.16201772678471502
3.063 0.9867828507664574 -0.16204927365094823
3.0635 0.9867776698787846 -0.16208082754054037
3.064 0.9867724867985842 -0.16211238846422546
3.0645 0.9867673015233853 -0.1621439564326914
3.065 0.9867621140507189 -0.16217553145665714
3.0655 0.9867569243781074 -0.1622071135468838
3.066 0.9867517325030606 -0.16223870271413202
3.0665 0.9867465384229928 -0.16227029896923825
3.067 0.9867413421356183 -0.16230190232292543
3.0675 0.9867361436382242 -0.162333512786159
3.068 0.9867309429285125 -0.1623651303696981
3.0685 0.9867257400037763 -0.16239675508442847
3.069 0.9867205348616861 -0.1624283869413594
3.0695 0.986715327499542 -0.16246002595130843
3.07 0.9867101179149117 -0.16249167212520155
3.0705 0.9867049061053589 -0.16252332547410692
3.071 0.986699692068153 -0.16255498600896473
3.0715 0.986694475800848 -0.16258665374077338
3.072 0.9866892573010058 -0.16261832868061435
3.0725 0.9866840365658625 -0.16265001083953148
3.073 0.986678813592973 -0.16268170022855485
3.0735 0.9866735883798665 -0.162713396858866
3.074 0.9866683609237852 -0.16274510074149506
3.0745 0.9866631312223457 -0.16277681188768423
3.075 0.9866578992727723 -0.1628085303085717
3.0755 0.9866526650725811 -0.16284025601530067
3.076 0.9866474286192827 -0.1628719890191843
3.0765 0.9866421899101828 -0.1629037293313605
3.077 0.9866369489425862 -0.16293547696314178
3.0775 0.986631705714076 -0.16296723192582374
3.078 0.9866264602219476 -0.16299899423068426
3.0785 0.9866212124635875 -0.1630307638890837
3.079 0.9866159624363697 -0.16306254091230687
3.0795 0.9866107101376683 -0.16309432531181436
3.08 0.9866054555648408 -0.16312611709898558
3.0805 0.986600198715358 -0.16315791628520954
3.081 0.9865949395863838 -0.16318972288190184
3.0815 0.986589678175448 -0.16322153690067376
3.082 0.9865844144797068 -0.1632533583528549
3.0825 0.9865791484967028 -0.16328518725002608
3.083 0.9865738802236624 -0.16331702360374226
3.0835 0.9865686096579112 -0.16334886742558272
3.084 0.986563336796877 -0.1633807187270816
3.0845 0.9865580616376745 -0.16341257751986674
3.085 0.9865527841778191 -0.1634444438155719
3.0855 0.9865475044144024 -0.16347631762587012
3.086 0.9865422223449356 -0.1635081989624574
3.0865 0.9865369379667084 -0.16354008783700558
3.087 0.9865316512768089 -0.16357198426124453
3.0875 0.9865263622727253 -0.1636038882469278
3.088 0.9865210709515253 -0.16363579980584847
3.0885 0.9865157773106735 -0.16366771894982116
3.089 0.986510481347357 -0.16369964569062542
3.0895 0.9865051830589116 -0.1637315800401438
3.09 0.9864998824425052 -0.16376352201024744
3.0905 0.9864945794952771 -0.16379547161283692
3.091 0.9864892742147698 -0.16382742885983376
3.0915 0.9864839665979241 -0.16385939376318773
3.092 0.9864786566421613 -0.16389136633490065
3.0925 0.986473344344611 -0.16392334658690624
3.093 0.9864680297024969 -0.16395533453122482
3.0935 0.9864627127130203 -0.16398733017995148
3.094 0.9864573933734834 -0.16401933354519127
3.0945 0.9864520716810006 -0.16405134463895787
3.095 0.9864467476327615 -0.16408336347342045
3.0955 0.9864414212260452 -0.16411539006069273
3.096 0.9864360924579396 -0.16414742441299732
3.0965 0.9864307613256237 -0.16417946654251214
3.097 0.9864254278263618 -0.1642115164614416
3.0975 0.9864200919572221 -0.16424357418200175
3.098 0.9864147537153607 -0.16427563971652961
3.0985 0.9864094130979317 -0.16430771307730904
3.099 0.9864040701021763 -0.16433979427664255
3.0995 0.9863987247251385 -0.16437188332689828
3.1 0.9863933769640433 -0.16440398024045158
3.1005 0.986388026815923 -0.1644360850296829
3.101 0.9863826742779013 -0.1644681977070211
3.1015 0.9863773193471893 -0.16450031828496742
3.102 0.9863719620207935 -0.16453244677596632
3.1025 0.9863666022959233 -0.1645645831925044
3.103 0.9863612401695763 -0.16459672754709453
3.1035 0.9863558756388308 -0.16462887985234442
3.104 0.9863505087008749 -0.16466104012085095
3.1045 0.9863451393526865 -0.16469320836515716
3.105 0.9863397675913411 -0.16472538459796565
3.1055 0.9863343934139935 -0.16475756883186624
3.106 0.9863290168177133 -0.16478976107961688
3.1065 0.9863236377994432 -0.16482196135388089
3.107 0.9863182563562326 -0.16485416966743335
3.1075 0.9863128724852246 -0.16488638603300562
3.108 0.9863074861833384 -0.16491861046344533
3.1085 0.9863020974477141 -0.16495084297151938
3.109 0.9862967062752667 -0.16498308357011215
3.1095 0.9862913126630125 -0.16501533227206377
3.11 0.9862859166081468 -0.16504758909034156
3.1105 0.9862805181073799 -0.16507985403782716
3.111 0.9862751171579032 -0.16511212712749154
3.1115 0.9862697137567092 -0.16514440837228325
3.112 0.9862643079006748 -0.16517669778524868
3.1125 0.98625889958687 -0.16520899537945746
3.113 0.9862534888121622 -0.16524130116791017
3.1135 0.9862480755735189 -0.16527361516369718
3.114 0.9862426598680846 -0.16530593738005633
3.1145 0.9862372416925297 -0.16533826782995378
3.115 0.9862318210440653 -0.16537060652673
3.1155 0.9862263979193348 -0.1654029534835079
3.116 0.9862209723155778 -0.16543530871353276
3.1165 0.9862155442295057 -0.1654676722300844
3.117 0.9862101136580383 -0.16550004404639662
3.1175 0.9862046805981814 -0.165532424175804
3.118 0.9861992450468187 -0.16556481263174896
3.1185 0.9861938070007742 -0.16559720942743775
3.119 0.9861883664570137 -0.1656296145764048
3.1195 0.9861829234124202 -0.16566202809206135
3.12 0.9861774778637733 -0.16569444998779853
3.1205 0.9861720298080263 -0.1657268802771689
3.121 0.9861665792419564 -0.16575931897363608
3.1215 0.9861611261625056 -0.165791766090794
3.122 0.9861556705665218 -0.1658242216421812
3.1225 0.9861502124507547 -0.16585668564136433
3.123 0.9861447518121167 -0.16588915810203972
3.1235 0.9861392886473369 -0.1659216390378701
3.124 0.9861338229533445 -0.16595412846250515
3.1245 0.9861283547269412 -0.16598662638969822
3.125 0.9861228839649263 -0.1660191328331593
3.1255 0.9861174106640184 -0.16605164780664997
3.126 0.9861119348210823 -0.16608417132402334
3.1265 0.986106456432903 -0.16611670339915097
3.127 0.9861009754961735 -0.16614924404579226
3.1275 0.9860954920077468 -0.16618179327792776
3.128 0.9860900059643921 -0.16621435110941016
3.1285 0.9860845173627589 -0.1662469175542122
3.129 0.9860790261996972 -0.16627949262636776
3.1295 0.986073532471945 -0.16631207633983833
3.13 0.9860680361762316 -0.16634466870869927
3.1305 0.9860625373091781 -0.1663772697470446
3.131 0.9860570358676164 -0.16640987946892294
3.1315 0.9860515318482466 -0.16644249788848686
3.132 0.9860460252476809 -0.16647512501990017
3.1325 0.9860405160627984 -0.1665077608773726
3.133 0.986035004290108 -0.16654040547513208
3.1335 0.9860294899263747 -0.16657305882739756
3.134 0.9860239729681786 -0.1666057209485085
3.1345 0.9860184534123849 -0.16663839185274554
3.135 0.9860129312554591 -0.16667107155444094
3.1355 0.9860074064941364 -0.16670376006807702
3.136 0.9860018791250812 -0.16673645740792395
3.1365 0.9859963491449147 -0.16676916358850907
3.137 0.9859908165501644 -0.16680187862430693
3.1375 0.9859852813376639 -0.16683460252978388
3.138 0.9859797435038248 -0.1668673353194759
3.1385 0.9859742030453448 -0.16690007700798293
3.139 0.9859686599587285 -0.16693282760983466
3.1395 0.985963114240761 -0.1669655871397811
3.14 0.9859575658879306 -0.1669983556123768
3.1405 0.9859520148967102 -0.1670311330423875
3.141 0.985946461263778 -0.16706391944446722
3.1415 0.9859409049857768 -0.16709671483345695
3.142 0.985935346059075 -0.16712951922406297
3.1425 0.9859297844803054 -0.16716233263113595
3.143 0.9859242202459139 -0.1671951550695345
3.1435 0.985918653352627 -0.16722798655415533
3.144 0.98591308379686 -0.16726082709991977
3.1445 0.9859075115750348 -0.16729367672174197
3.145 0.9859019366838447 -0.16732653543467452
3.1455 0.9858963591196067 -0.16735940325366405
3.146 0.9858907788788853 -0.16739228019380945
3.1465 0.9858851959582885 -0.16742516627015494
3.147 0.9858796103540721 -0.1674580614978377
3.1475 0.9858740220628168 -0.16749096589192788
3.148 0.9858684310809634 -0.167523879467769
3.1485 0.9858628374049693 -0.16755680224044633
3.149 0.98585724103129 -0.16758973422521062
3.1495 0.985851641956334 -0.16762267543742643
3.15 0.9858460401765411 -0.16765562589230243
3.1505 0.9858404356883348 -0.1676885856052378
3.151 0.9858348284881101 -0.1677215545916314
3.1515 0.9858292185722722 -0.16775453286691622
3.152 0.9858236059372264 -0.16778752044643067
3.1525 0.9858179905793397 -0.1678205173458213
3.153 0.9858123724950095 -0.1678535235804217
3.1535 0.9858067516805734 -0.16788653916597968
3.154 0.9858011281324294 -0.16791956411788425
3.1545 0.9857955018468969 -0.16795259845189586
3.155 0.9857898728203393 -0.1679856421835778
3.1555 0.9857842410490866 -0.1680186953287091
3.156 0.9857786065294628 -0.16805175790291932
3.1565 0.9857729692578806 -0.1680848299220729
3.157 0.9857673292304613 -0.1681179114018575
3.1575 0.9857616864435993 -0.1681510023581685
3.158 0.9857560408936817 -0.16818410280684656
3.1585 0.9857503925768138 -0.16821721276374088
3.159 0.9857447414894555 -0.1682503322448676
3.1595 0.9857390876277784 -0.16828346126614002
3.16 0.9857334309880446 -0.1683165998435441
3.1605 0.9857277715664983 -0.16834974799317215
3.161 0.9857221093593785 -0.1683829057311131
3.1615 0.9857164443629238 -0.16841607307342463
3.162 0.9857107765733619 -0.16844925003622993
3.1625 0.9857051059870121 -0.16848243663574683
3.163 0.9856994325998621 -0.16851563288821098
3.1635 0.9856937564083186 -0.1685488388098913
3.164 0.9856880774084829 -0.16858205441702398
3.1645 0.9856823955965283 -0.16861527972593052
3.165 0.985676710968623 -0.16864851475301396
3.1655 0.9856710235209311 -0.16868175951464814
3.166 0.9856653332497107 -0.1687150140272514
3.1665 0.9856596401509995 -0.16874827830734807
3.167 0.9856539442208462 -0.1687815523713946
3.1675 0.9856482454556659 -0.16881483623600244
3.168 0.9856425438512847 -0.16884812991766932
3.1685 0.9856368394039076 -0.16888143343304388
3.169 0.9856311321097306 -0.16891474679883728
3.1695 0.9856254219647631 -0.1689480700316526
3.17 0.9856197089650676 -0.16898140314831767
3.1705 0.9856139931067239 -0.1690147461655266
3.171 0.9856082743859069 -0.1690480991000939
3.1715 0.9856025527985556 -0.16908146196890883
3.172 0.9855968283407194 -0.1691148347888236
3.1725 0.985591101008441 -0.16914821757676846
3.173 0.9855853707978368 -0.16918161034967288
3.1735 0.9855796377048461 -0.16921501312453394
3.174 0.9855739017254503 -0.16924842591843595
3.1745 0.9855681628556697 -0.16928184874838448
3.175 0.9855624210915948 -0.16931528163150178
3.1755 0.9855566764290912 -0.16934872458499298
3.176 0.9855509288641351 -0.16938217762600255
3.1765 0.9855451783927829 -0.16941564077180069
3.177 0.9855394250109035 -0.16944911403959065
3.1775 0.9855336687144384 -0.1694825974466792
3.178 0.9855279094994049 -0.16951609101048082
3.1785 0.9855221473616349 -0.16954959474830472
3.179 0.9855163822970443 -0.16958310867762905
3.1795 0.9855106143015502 -0.1696166328158153
3.18 0.98550484337112 -0.16965016718053466
3.1805 0.9854990695015591 -0.16968371178914107
3.181 0.9854932926888383 -0.16971726665934367
3.1815 0.9854875129287247 -0.1697508318087458
3.182 0.985481730217078 -0.1697844072549069
3.1825 0.9854759445498369 -0.1698179930156738
3.183 0.9854701559227357 -0.16985158910872394
3.1835 0.9854643643316143 -0.16988519555180936
3.184 0.9854585697723814 -0.16991881236275178
3.1845 0.9854527722407581 -0.16995243955942843
3.185 0.9854469717326136 -0.16998607715978115
3.1855 0.9854411682436636 -0.17001972518171218
3.186 0.9854353617697656 -0.17005338364324551
3.1865 0.9854295523065031 -0.170087052562331
3.187 0.9854237398499203 -0.17012073195708483
3.1875 0.9854179243954693 -0.17015442184562296
3.188 0.9854121059391904 -0.1701881222460991
3.1885 0.9854062844765169 -0.17022183317663736
3.189 0.9854004600033466 -0.1702555546555606
3.1895 0.9853946325154035 -0.17028928670108226
3.19 0.9853888020082769 -0.17032302933156115
3.1905 0.9853829684776536 -0.1703567825652848
3.191 0.9853771319193144 -0.17039054642076362
3.1915 0.9853712923289222 -0.17042432091632603
3.192 0.9853654497020314 -0.1704581060705257
3.1925 0.9853596040342842 -0.17049190190184488
3.193 0.9853537553214258 -0.1705257084289123
3.1935 0.9853479035589762 -0.17055952567023566
3.194 0.9853420487426472 -0.17059335364463
3.1945 0.9853361908680454 -0.17062719237061763
3.195 0.9853303299306554 -0.1706610418670854
3.1955 0.9853244659260705 -0.17069490215272645
3.196 0.9853185988499472 -0.17072877324642605
3.1965 0.9853127286978696 -0.17076265516701195
3.197 0.985306855465278 -0.170796547933398
3.1975 0.9853009791477989 -0.1708304515645979
3.198 0.9852950997408844 -0.17086436607955657
3.1985 0.985289217240137 -0.17089829149731675
3.199 0.9852833316409835 -0.1709322278369522
3.1995 0.9852774429389927 -0.17096617511768672
3.2 0.9852715511295701 -0.1710001333586677
3.2005 0.9852656562082874 -0.17103410257902818
3.201 0.9852597581706108 -0.1710680827981548
3.2015 0.9852538570118846 -0.1711020740352829
3.202 0.9852479527276636 -0.17113607630982738
3.2025 0.9852420453133658 -0.1711700896411466
3.203 0.9852361347643308 -0.17120411404867159
3.2035 0.9852302210760504 -0.17123814955198335
3.204 0.9852243042438311 -0.17127219617045375
3.2045 0.9852183842631538 -0.1713062539238892
3.205 0.9852124611294112 -0.1713403228316928
3.2055 0.9852065348378573 -0.17137440291370523
3.206 0.9852006053839365 -0.17140849418958487
3.2065 0.9851946727630068 -0.17144259667910966
3.207 0.9851887369702896 -0.17147671040202084
3.2075 0.9851827980012082 -0.17151083537829653
3.208 0.9851768558510675 -0.17154497162780616
3.2085 0.9851709105150669 -0.1715791191704753
3.209 0.9851649619886025 -0.1716132780262857
3.2095 0.9851590102669303 -0.17164744821529618
3.21 0.9851530553452279 -0.17168162975761148
3.2105 0.9851470972188362 -0.17171582267339028
3.211 0.9851411358830074 -0.17175002698277245
3.2115 0.9851351713329454 -0.1717842427060634
3.212 0.9851292035637996 -0.17181846986340993
3.2125 0.985123232570851 -0.17185270847533707
3.213 0.985117258349295 -0.1718869585620409
3.2135 0.9851112808942205 -0.17192122014404845
3.214 0.9851053002008902 -0.17195549324180526
3.2145 0.9850993162644657 -0.17198977787587663
3.215 0.985093329080097 -0.1720240740667111
3.2155 0.985087338642906 -0.17205838183504427
